xrun(64): 25.03-s001: (c) Copyright 1995-2025 Cadence Design Systems, Inc.
TOOL:	xrun(64)	25.03-s001: Started on Jul 18, 2026 at 03:41:42 EDT
xrun
	-access +rwc
	-uvm
	-timescale 1ns/1ps
	-f ./sim/flist.f
		+incdir+/home/user2/Documents/user1/AXI_DV_coverage/rtl
		+incdir+/home/user2/Documents/user1/AXI_DV_coverage/tb/agents
		+incdir+/home/user2/Documents/user1/AXI_DV_coverage/tb/env
		+incdir+/home/user2/Documents/user1/AXI_DV_coverage/sim
		+incdir+/home/user2/Documents/user1/AXI_DV_coverage/tb/sequences
		+incdir+/home/user2/Documents/user1/AXI_DV_coverage/tb/tests
		+incdir+/home/user2/Documents/user1/AXI_DV_coverage/tb/top
		/home/user2/Documents/user1/AXI_DV_coverage/rtl/axi_slave.v
		/home/user2/Documents/user1/AXI_DV_coverage/tb/top/pkg.sv
		/home/user2/Documents/user1/AXI_DV_coverage/tb/agents/interface.sv
		/home/user2/Documents/user1/AXI_DV_coverage/tb/top/top.sv
	+UVM_TESTNAME=axi_fixed_aligned_test
	+UVM_VERBOSITY=UVM_MEDIUM
	+UVM_NO_RELNOTES
	-input wave.tcl
	-svseed random
	-l ./sim/axi_fixed_aligned_test/run.log

   User defined plus("+") options:
	+UVM_VERBOSITY=UVM_MEDIUM
	+UVM_NO_RELNOTES

Loading snapshot worklib.top:sv .................... Done
SVSEED set randomly from command line: -2145643607
xcelium> source /man-vol1/tools/install/XCELIUM2503/tools/xcelium/files/xmsimrc
xcelium> source /man-vol1/tools/install/XCELIUM2503/tools/methodology/UVM/CDNS-1.1d/additions/sv/files/tcl/uvm_sim.tcl
xcelium> set test_name $env(TEST)
axi_fixed_aligned_test
xcelium> set out_dir   $env(OUT_DIR)
./sim/axi_fixed_aligned_test
xcelium>  
xcelium> database -open waves \
>          -shm \
>          -into ${out_dir}/waves.shm
Created SHM database waves
xcelium>  
xcelium> probe -create -all -depth all
Created probe 1
xcelium>  
xcelium> run
----------------------------------------------------------------
CDNS-UVM-1.1d (25.03-s001)
(C) 2007-2013 Mentor Graphics Corporation
(C) 2007-2013 Cadence Design Systems, Inc.
(C) 2006-2013 Synopsys, Inc.
(C) 2011-2013 Cypress Semiconductor Corp.
----------------------------------------------------------------
UVM_INFO @ 0: reporter [RNTST] Running test axi_fixed_aligned_test...
xmsim: *W,PRFRTNEV: (-FUNCTIONS) Database must be opened in -EVENT mode to capture calling scope data. Use -wave_glitch_recording with ida_database if ida_probe is being used. Set is_sequence_time option to 1 if $shm_open/$shm_probe is being used.
UVM_INFO /home/user2/Documents/user1/AXI_DV_coverage/tb/agents/driver.sv(64) @ 15000: uvm_test_top.ev.agt.drv [DRV] Write Transaction Received addr=e0 len=5
UVM_INFO /home/user2/Documents/user1/AXI_DV_coverage/tb/env/axi_slave_mem_model.sv(81) @ 45000: uvm_test_top.ev.mem_model [MEM_MODEL ] Write Burst start addr=e0 beats=6
UVM_INFO /home/user2/Documents/user1/AXI_DV_coverage/tb/agents/driver.sv(106) @ 45000: uvm_test_top.ev.agt.drv [DRV] AW sent addr=e0 len=5
UVM_INFO /home/user2/Documents/user1/AXI_DV_coverage/tb/env/axi_slave_mem_model.sv(90) @ 55000: uvm_test_top.ev.mem_model [MEM Model] Write Mem[e0]=6acb9848
UVM_INFO /home/user2/Documents/user1/AXI_DV_coverage/tb/env/axi_slave_mem_model.sv(90) @ 65000: uvm_test_top.ev.mem_model [MEM Model] Write Mem[e0]=ba61efb2
UVM_INFO /home/user2/Documents/user1/AXI_DV_coverage/tb/env/axi_slave_mem_model.sv(90) @ 75000: uvm_test_top.ev.mem_model [MEM Model] Write Mem[e0]=6f30946e
UVM_INFO /home/user2/Documents/user1/AXI_DV_coverage/tb/env/axi_slave_mem_model.sv(90) @ 85000: uvm_test_top.ev.mem_model [MEM Model] Write Mem[e0]=a6f2fa1d
UVM_INFO /home/user2/Documents/user1/AXI_DV_coverage/tb/env/axi_slave_mem_model.sv(90) @ 95000: uvm_test_top.ev.mem_model [MEM Model] Write Mem[e0]=a2a4ef1a
UVM_INFO /home/user2/Documents/user1/AXI_DV_coverage/tb/env/axi_slave_mem_model.sv(90) @ 105000: uvm_test_top.ev.mem_model [MEM Model] Write Mem[e0]=a307dfa5
UVM_INFO /home/user2/Documents/user1/AXI_DV_coverage/tb/agents/driver.sv(141) @ 105000: uvm_test_top.ev.agt.drv [DRV] W Burst sent beats=6
UVM_INFO /home/user2/Documents/user1/AXI_DV_coverage/tb/agents/driver.sv(159) @ 115000: uvm_test_top.ev.agt.drv [DRV] Write Response =0
UVM_INFO /home/user2/Documents/user1/AXI_DV_coverage/tb/env/scoreboard.sv(71) @ 125000: uvm_test_top.ev.scb [SB] WRITE MEM[e0]=6acb9848
UVM_INFO /home/user2/Documents/user1/AXI_DV_coverage/tb/env/scoreboard.sv(71) @ 125000: uvm_test_top.ev.scb [SB] WRITE MEM[e0]=ba61efb2
UVM_INFO /home/user2/Documents/user1/AXI_DV_coverage/tb/env/scoreboard.sv(71) @ 125000: uvm_test_top.ev.scb [SB] WRITE MEM[e0]=6f30946e
UVM_INFO /home/user2/Documents/user1/AXI_DV_coverage/tb/env/scoreboard.sv(71) @ 125000: uvm_test_top.ev.scb [SB] WRITE MEM[e0]=a6f2fa1d
UVM_INFO /home/user2/Documents/user1/AXI_DV_coverage/tb/env/scoreboard.sv(71) @ 125000: uvm_test_top.ev.scb [SB] WRITE MEM[e0]=a2a4ef1a
UVM_INFO /home/user2/Documents/user1/AXI_DV_coverage/tb/env/scoreboard.sv(71) @ 125000: uvm_test_top.ev.scb [SB] WRITE MEM[e0]=a307dfa5
UVM_INFO /home/user2/Documents/user1/AXI_DV_coverage/tb/agents/monitor.sv(86) @ 125000: uvm_test_top.ev.agt.mon [MON] Write MON addr=e0 len=5
UVM_INFO /home/user2/Documents/user1/AXI_DV_coverage/tb/sequences/sequence.sv(175) @ 125000: uvm_test_top.ev.agt.sqr@@sq [SEQ2] Fixed aligned Write :addr=e0 len=5 
UVM_INFO /home/user2/Documents/user1/AXI_DV_coverage/tb/agents/driver.sv(73) @ 125000: uvm_test_top.ev.agt.drv [DRV] Read Transaction Received addr=e0 len=5
UVM_INFO /home/user2/Documents/user1/AXI_DV_coverage/tb/env/axi_slave_mem_model.sv(132) @ 155000: uvm_test_top.ev.mem_model [MEM_MODEL ] Read Burst start addr=e0 beats=6
UVM_INFO /home/user2/Documents/user1/AXI_DV_coverage/tb/agents/driver.sv(192) @ 155000: uvm_test_top.ev.agt.drv [DRV] AR sent addr=e0 len=5
UVM_INFO /home/user2/Documents/user1/AXI_DV_coverage/tb/env/axi_slave_mem_model.sv(136) @ 160000: uvm_test_top.ev.mem_model [MEM Model] Read Mem[e0]=a307dfa5
UVM_INFO /home/user2/Documents/user1/AXI_DV_coverage/tb/agents/driver.sv(227) @ 175000: uvm_test_top.ev.agt.drv [DRV] RDATA beat=1 data=a307dfa5 last=0
UVM_INFO /home/user2/Documents/user1/AXI_DV_coverage/tb/env/axi_slave_mem_model.sv(136) @ 180000: uvm_test_top.ev.mem_model [MEM Model] Read Mem[e0]=a307dfa5
UVM_INFO /home/user2/Documents/user1/AXI_DV_coverage/tb/agents/driver.sv(227) @ 185000: uvm_test_top.ev.agt.drv [DRV] RDATA beat=2 data=a307dfa5 last=0
UVM_INFO /home/user2/Documents/user1/AXI_DV_coverage/tb/env/axi_slave_mem_model.sv(136) @ 190000: uvm_test_top.ev.mem_model [MEM Model] Read Mem[e0]=a307dfa5
UVM_INFO /home/user2/Documents/user1/AXI_DV_coverage/tb/agents/driver.sv(227) @ 195000: uvm_test_top.ev.agt.drv [DRV] RDATA beat=3 data=a307dfa5 last=0
UVM_INFO /home/user2/Documents/user1/AXI_DV_coverage/tb/env/axi_slave_mem_model.sv(136) @ 200000: uvm_test_top.ev.mem_model [MEM Model] Read Mem[e0]=a307dfa5
UVM_INFO /home/user2/Documents/user1/AXI_DV_coverage/tb/agents/driver.sv(227) @ 205000: uvm_test_top.ev.agt.drv [DRV] RDATA beat=4 data=a307dfa5 last=0
UVM_INFO /home/user2/Documents/user1/AXI_DV_coverage/tb/env/axi_slave_mem_model.sv(136) @ 210000: uvm_test_top.ev.mem_model [MEM Model] Read Mem[e0]=a307dfa5
UVM_INFO /home/user2/Documents/user1/AXI_DV_coverage/tb/agents/driver.sv(227) @ 215000: uvm_test_top.ev.agt.drv [DRV] RDATA beat=5 data=a307dfa5 last=0
UVM_INFO /home/user2/Documents/user1/AXI_DV_coverage/tb/env/axi_slave_mem_model.sv(136) @ 220000: uvm_test_top.ev.mem_model [MEM Model] Read Mem[e0]=a307dfa5
UVM_INFO /home/user2/Documents/user1/AXI_DV_coverage/tb/env/scoreboard.sv(83) @ 225000: uvm_test_top.ev.scb [SB] MATCH Beat=1 addr=e0 exp=a307dfa5 act=a307dfa5
UVM_INFO /home/user2/Documents/user1/AXI_DV_coverage/tb/env/scoreboard.sv(83) @ 225000: uvm_test_top.ev.scb [SB] MATCH Beat=2 addr=e0 exp=a307dfa5 act=a307dfa5
UVM_INFO /home/user2/Documents/user1/AXI_DV_coverage/tb/env/scoreboard.sv(83) @ 225000: uvm_test_top.ev.scb [SB] MATCH Beat=3 addr=e0 exp=a307dfa5 act=a307dfa5
UVM_INFO /home/user2/Documents/user1/AXI_DV_coverage/tb/env/scoreboard.sv(83) @ 225000: uvm_test_top.ev.scb [SB] MATCH Beat=4 addr=e0 exp=a307dfa5 act=a307dfa5
UVM_INFO /home/user2/Documents/user1/AXI_DV_coverage/tb/env/scoreboard.sv(83) @ 225000: uvm_test_top.ev.scb [SB] MATCH Beat=5 addr=e0 exp=a307dfa5 act=a307dfa5
UVM_INFO /home/user2/Documents/user1/AXI_DV_coverage/tb/env/scoreboard.sv(83) @ 225000: uvm_test_top.ev.scb [SB] MATCH Beat=6 addr=e0 exp=a307dfa5 act=a307dfa5
UVM_INFO /home/user2/Documents/user1/AXI_DV_coverage/tb/agents/monitor.sv(121) @ 225000: uvm_test_top.ev.agt.mon [MON] READ MON addr=e0 len=5
UVM_INFO /home/user2/Documents/user1/AXI_DV_coverage/tb/agents/driver.sv(227) @ 225000: uvm_test_top.ev.agt.drv [DRV] RDATA beat=6 data=a307dfa5 last=1
UVM_INFO /home/user2/Documents/user1/AXI_DV_coverage/tb/agents/driver.sv(244) @ 235000: uvm_test_top.ev.agt.drv [DRV] Read Burst received  beats=6
UVM_INFO /home/user2/Documents/user1/AXI_DV_coverage/tb/sequences/sequence.sv(186) @ 235000: uvm_test_top.ev.agt.sqr@@sq [SEQ] Fixed aligned Read :addr=e0 len=5 
UVM_INFO /home/user2/Documents/user1/AXI_DV_coverage/tb/agents/driver.sv(64) @ 235000: uvm_test_top.ev.agt.drv [DRV] Write Transaction Received addr=3c len=5
UVM_INFO /home/user2/Documents/user1/AXI_DV_coverage/tb/env/axi_slave_mem_model.sv(81) @ 265000: uvm_test_top.ev.mem_model [MEM_MODEL ] Write Burst start addr=3c beats=6
UVM_INFO /home/user2/Documents/user1/AXI_DV_coverage/tb/agents/driver.sv(106) @ 265000: uvm_test_top.ev.agt.drv [DRV] AW sent addr=3c len=5
UVM_INFO /home/user2/Documents/user1/AXI_DV_coverage/tb/env/axi_slave_mem_model.sv(90) @ 275000: uvm_test_top.ev.mem_model [MEM Model] Write Mem[3c]=1d68f22d
UVM_INFO /home/user2/Documents/user1/AXI_DV_coverage/tb/env/axi_slave_mem_model.sv(90) @ 285000: uvm_test_top.ev.mem_model [MEM Model] Write Mem[3c]=c6a6485d
UVM_INFO /home/user2/Documents/user1/AXI_DV_coverage/tb/env/axi_slave_mem_model.sv(90) @ 295000: uvm_test_top.ev.mem_model [MEM Model] Write Mem[3c]=9de452b9
UVM_INFO /home/user2/Documents/user1/AXI_DV_coverage/tb/env/axi_slave_mem_model.sv(90) @ 305000: uvm_test_top.ev.mem_model [MEM Model] Write Mem[3c]=c15bb163
UVM_INFO /home/user2/Documents/user1/AXI_DV_coverage/tb/env/axi_slave_mem_model.sv(90) @ 315000: uvm_test_top.ev.mem_model [MEM Model] Write Mem[3c]=74120c57
UVM_INFO /home/user2/Documents/user1/AXI_DV_coverage/tb/env/axi_slave_mem_model.sv(90) @ 325000: uvm_test_top.ev.mem_model [MEM Model] Write Mem[3c]=5e7e19d8
UVM_INFO /home/user2/Documents/user1/AXI_DV_coverage/tb/agents/driver.sv(141) @ 325000: uvm_test_top.ev.agt.drv [DRV] W Burst sent beats=6
UVM_INFO /home/user2/Documents/user1/AXI_DV_coverage/tb/agents/driver.sv(159) @ 335000: uvm_test_top.ev.agt.drv [DRV] Write Response =0
UVM_INFO /home/user2/Documents/user1/AXI_DV_coverage/tb/env/scoreboard.sv(71) @ 345000: uvm_test_top.ev.scb [SB] WRITE MEM[3c]=1d68f22d
UVM_INFO /home/user2/Documents/user1/AXI_DV_coverage/tb/env/scoreboard.sv(71) @ 345000: uvm_test_top.ev.scb [SB] WRITE MEM[3c]=c6a6485d
UVM_INFO /home/user2/Documents/user1/AXI_DV_coverage/tb/env/scoreboard.sv(71) @ 345000: uvm_test_top.ev.scb [SB] WRITE MEM[3c]=9de452b9
UVM_INFO /home/user2/Documents/user1/AXI_DV_coverage/tb/env/scoreboard.sv(71) @ 345000: uvm_test_top.ev.scb [SB] WRITE MEM[3c]=c15bb163
UVM_INFO /home/user2/Documents/user1/AXI_DV_coverage/tb/env/scoreboard.sv(71) @ 345000: uvm_test_top.ev.scb [SB] WRITE MEM[3c]=74120c57
UVM_INFO /home/user2/Documents/user1/AXI_DV_coverage/tb/env/scoreboard.sv(71) @ 345000: uvm_test_top.ev.scb [SB] WRITE MEM[3c]=5e7e19d8
UVM_INFO /home/user2/Documents/user1/AXI_DV_coverage/tb/agents/monitor.sv(86) @ 345000: uvm_test_top.ev.agt.mon [MON] Write MON addr=3c len=5
UVM_INFO /home/user2/Documents/user1/AXI_DV_coverage/tb/sequences/sequence.sv(175) @ 345000: uvm_test_top.ev.agt.sqr@@sq [SEQ2] Fixed aligned Write :addr=3c len=5 
UVM_INFO /home/user2/Documents/user1/AXI_DV_coverage/tb/agents/driver.sv(73) @ 345000: uvm_test_top.ev.agt.drv [DRV] Read Transaction Received addr=3c len=5
UVM_INFO /home/user2/Documents/user1/AXI_DV_coverage/tb/env/axi_slave_mem_model.sv(132) @ 375000: uvm_test_top.ev.mem_model [MEM_MODEL ] Read Burst start addr=3c beats=6
UVM_INFO /home/user2/Documents/user1/AXI_DV_coverage/tb/agents/driver.sv(192) @ 375000: uvm_test_top.ev.agt.drv [DRV] AR sent addr=3c len=5
UVM_INFO /home/user2/Documents/user1/AXI_DV_coverage/tb/env/axi_slave_mem_model.sv(136) @ 380000: uvm_test_top.ev.mem_model [MEM Model] Read Mem[3c]=5e7e19d8
UVM_INFO /home/user2/Documents/user1/AXI_DV_coverage/tb/agents/driver.sv(227) @ 395000: uvm_test_top.ev.agt.drv [DRV] RDATA beat=1 data=5e7e19d8 last=0
UVM_INFO /home/user2/Documents/user1/AXI_DV_coverage/tb/env/axi_slave_mem_model.sv(136) @ 400000: uvm_test_top.ev.mem_model [MEM Model] Read Mem[3c]=5e7e19d8
UVM_INFO /home/user2/Documents/user1/AXI_DV_coverage/tb/agents/driver.sv(227) @ 405000: uvm_test_top.ev.agt.drv [DRV] RDATA beat=2 data=5e7e19d8 last=0
UVM_INFO /home/user2/Documents/user1/AXI_DV_coverage/tb/env/axi_slave_mem_model.sv(136) @ 410000: uvm_test_top.ev.mem_model [MEM Model] Read Mem[3c]=5e7e19d8
UVM_INFO /home/user2/Documents/user1/AXI_DV_coverage/tb/agents/driver.sv(227) @ 415000: uvm_test_top.ev.agt.drv [DRV] RDATA beat=3 data=5e7e19d8 last=0
UVM_INFO /home/user2/Documents/user1/AXI_DV_coverage/tb/env/axi_slave_mem_model.sv(136) @ 420000: uvm_test_top.ev.mem_model [MEM Model] Read Mem[3c]=5e7e19d8
UVM_INFO /home/user2/Documents/user1/AXI_DV_coverage/tb/agents/driver.sv(227) @ 425000: uvm_test_top.ev.agt.drv [DRV] RDATA beat=4 data=5e7e19d8 last=0
UVM_INFO /home/user2/Documents/user1/AXI_DV_coverage/tb/env/axi_slave_mem_model.sv(136) @ 430000: uvm_test_top.ev.mem_model [MEM Model] Read Mem[3c]=5e7e19d8
UVM_INFO /home/user2/Documents/user1/AXI_DV_coverage/tb/agents/driver.sv(227) @ 435000: uvm_test_top.ev.agt.drv [DRV] RDATA beat=5 data=5e7e19d8 last=0
UVM_INFO /home/user2/Documents/user1/AXI_DV_coverage/tb/env/axi_slave_mem_model.sv(136) @ 440000: uvm_test_top.ev.mem_model [MEM Model] Read Mem[3c]=5e7e19d8
UVM_INFO /home/user2/Documents/user1/AXI_DV_coverage/tb/env/scoreboard.sv(83) @ 445000: uvm_test_top.ev.scb [SB] MATCH Beat=1 addr=3c exp=5e7e19d8 act=5e7e19d8
UVM_INFO /home/user2/Documents/user1/AXI_DV_coverage/tb/env/scoreboard.sv(83) @ 445000: uvm_test_top.ev.scb [SB] MATCH Beat=2 addr=3c exp=5e7e19d8 act=5e7e19d8
UVM_INFO /home/user2/Documents/user1/AXI_DV_coverage/tb/env/scoreboard.sv(83) @ 445000: uvm_test_top.ev.scb [SB] MATCH Beat=3 addr=3c exp=5e7e19d8 act=5e7e19d8
UVM_INFO /home/user2/Documents/user1/AXI_DV_coverage/tb/env/scoreboard.sv(83) @ 445000: uvm_test_top.ev.scb [SB] MATCH Beat=4 addr=3c exp=5e7e19d8 act=5e7e19d8
UVM_INFO /home/user2/Documents/user1/AXI_DV_coverage/tb/env/scoreboard.sv(83) @ 445000: uvm_test_top.ev.scb [SB] MATCH Beat=5 addr=3c exp=5e7e19d8 act=5e7e19d8
UVM_INFO /home/user2/Documents/user1/AXI_DV_coverage/tb/env/scoreboard.sv(83) @ 445000: uvm_test_top.ev.scb [SB] MATCH Beat=6 addr=3c exp=5e7e19d8 act=5e7e19d8
UVM_INFO /home/user2/Documents/user1/AXI_DV_coverage/tb/agents/monitor.sv(121) @ 445000: uvm_test_top.ev.agt.mon [MON] READ MON addr=3c len=5
UVM_INFO /home/user2/Documents/user1/AXI_DV_coverage/tb/agents/driver.sv(227) @ 445000: uvm_test_top.ev.agt.drv [DRV] RDATA beat=6 data=5e7e19d8 last=1
UVM_INFO /home/user2/Documents/user1/AXI_DV_coverage/tb/agents/driver.sv(244) @ 455000: uvm_test_top.ev.agt.drv [DRV] Read Burst received  beats=6
UVM_INFO /home/user2/Documents/user1/AXI_DV_coverage/tb/sequences/sequence.sv(186) @ 455000: uvm_test_top.ev.agt.sqr@@sq [SEQ] Fixed aligned Read :addr=3c len=5 
UVM_INFO /home/user2/Documents/user1/AXI_DV_coverage/tb/agents/driver.sv(64) @ 455000: uvm_test_top.ev.agt.drv [DRV] Write Transaction Received addr=f0 len=2
UVM_INFO /home/user2/Documents/user1/AXI_DV_coverage/tb/env/axi_slave_mem_model.sv(81) @ 485000: uvm_test_top.ev.mem_model [MEM_MODEL ] Write Burst start addr=f0 beats=3
UVM_INFO /home/user2/Documents/user1/AXI_DV_coverage/tb/agents/driver.sv(106) @ 485000: uvm_test_top.ev.agt.drv [DRV] AW sent addr=f0 len=2
UVM_INFO /home/user2/Documents/user1/AXI_DV_coverage/tb/env/axi_slave_mem_model.sv(90) @ 495000: uvm_test_top.ev.mem_model [MEM Model] Write Mem[f0]=c21d0a6
UVM_INFO /home/user2/Documents/user1/AXI_DV_coverage/tb/env/axi_slave_mem_model.sv(90) @ 505000: uvm_test_top.ev.mem_model [MEM Model] Write Mem[f0]=dcd71a0c
UVM_INFO /home/user2/Documents/user1/AXI_DV_coverage/tb/env/axi_slave_mem_model.sv(90) @ 515000: uvm_test_top.ev.mem_model [MEM Model] Write Mem[f0]=77b34f4e
UVM_INFO /home/user2/Documents/user1/AXI_DV_coverage/tb/agents/driver.sv(141) @ 515000: uvm_test_top.ev.agt.drv [DRV] W Burst sent beats=3
UVM_INFO /home/user2/Documents/user1/AXI_DV_coverage/tb/agents/driver.sv(159) @ 525000: uvm_test_top.ev.agt.drv [DRV] Write Response =0
UVM_INFO /home/user2/Documents/user1/AXI_DV_coverage/tb/env/scoreboard.sv(71) @ 535000: uvm_test_top.ev.scb [SB] WRITE MEM[f0]=c21d0a6
UVM_INFO /home/user2/Documents/user1/AXI_DV_coverage/tb/env/scoreboard.sv(71) @ 535000: uvm_test_top.ev.scb [SB] WRITE MEM[f0]=dcd71a0c
UVM_INFO /home/user2/Documents/user1/AXI_DV_coverage/tb/env/scoreboard.sv(71) @ 535000: uvm_test_top.ev.scb [SB] WRITE MEM[f0]=77b34f4e
UVM_INFO /home/user2/Documents/user1/AXI_DV_coverage/tb/agents/monitor.sv(86) @ 535000: uvm_test_top.ev.agt.mon [MON] Write MON addr=f0 len=2
UVM_INFO /home/user2/Documents/user1/AXI_DV_coverage/tb/sequences/sequence.sv(175) @ 535000: uvm_test_top.ev.agt.sqr@@sq [SEQ2] Fixed aligned Write :addr=f0 len=2 
UVM_INFO /home/user2/Documents/user1/AXI_DV_coverage/tb/agents/driver.sv(73) @ 535000: uvm_test_top.ev.agt.drv [DRV] Read Transaction Received addr=f0 len=2
UVM_INFO /home/user2/Documents/user1/AXI_DV_coverage/tb/env/axi_slave_mem_model.sv(132) @ 565000: uvm_test_top.ev.mem_model [MEM_MODEL ] Read Burst start addr=f0 beats=3
UVM_INFO /home/user2/Documents/user1/AXI_DV_coverage/tb/agents/driver.sv(192) @ 565000: uvm_test_top.ev.agt.drv [DRV] AR sent addr=f0 len=2
UVM_INFO /home/user2/Documents/user1/AXI_DV_coverage/tb/env/axi_slave_mem_model.sv(136) @ 570000: uvm_test_top.ev.mem_model [MEM Model] Read Mem[f0]=77b34f4e
UVM_INFO /home/user2/Documents/user1/AXI_DV_coverage/tb/agents/driver.sv(227) @ 585000: uvm_test_top.ev.agt.drv [DRV] RDATA beat=1 data=77b34f4e last=0
UVM_INFO /home/user2/Documents/user1/AXI_DV_coverage/tb/env/axi_slave_mem_model.sv(136) @ 590000: uvm_test_top.ev.mem_model [MEM Model] Read Mem[f0]=77b34f4e
UVM_INFO /home/user2/Documents/user1/AXI_DV_coverage/tb/agents/driver.sv(227) @ 595000: uvm_test_top.ev.agt.drv [DRV] RDATA beat=2 data=77b34f4e last=0
UVM_INFO /home/user2/Documents/user1/AXI_DV_coverage/tb/env/axi_slave_mem_model.sv(136) @ 600000: uvm_test_top.ev.mem_model [MEM Model] Read Mem[f0]=77b34f4e
UVM_INFO /home/user2/Documents/user1/AXI_DV_coverage/tb/env/scoreboard.sv(83) @ 605000: uvm_test_top.ev.scb [SB] MATCH Beat=1 addr=f0 exp=77b34f4e act=77b34f4e
UVM_INFO /home/user2/Documents/user1/AXI_DV_coverage/tb/env/scoreboard.sv(83) @ 605000: uvm_test_top.ev.scb [SB] MATCH Beat=2 addr=f0 exp=77b34f4e act=77b34f4e
UVM_INFO /home/user2/Documents/user1/AXI_DV_coverage/tb/env/scoreboard.sv(83) @ 605000: uvm_test_top.ev.scb [SB] MATCH Beat=3 addr=f0 exp=77b34f4e act=77b34f4e
UVM_INFO /home/user2/Documents/user1/AXI_DV_coverage/tb/agents/monitor.sv(121) @ 605000: uvm_test_top.ev.agt.mon [MON] READ MON addr=f0 len=2
UVM_INFO /home/user2/Documents/user1/AXI_DV_coverage/tb/agents/driver.sv(227) @ 605000: uvm_test_top.ev.agt.drv [DRV] RDATA beat=3 data=77b34f4e last=1
UVM_INFO /home/user2/Documents/user1/AXI_DV_coverage/tb/agents/driver.sv(244) @ 615000: uvm_test_top.ev.agt.drv [DRV] Read Burst received  beats=3
UVM_INFO /home/user2/Documents/user1/AXI_DV_coverage/tb/sequences/sequence.sv(186) @ 615000: uvm_test_top.ev.agt.sqr@@sq [SEQ] Fixed aligned Read :addr=f0 len=2 
UVM_INFO /home/user2/Documents/user1/AXI_DV_coverage/tb/agents/driver.sv(64) @ 615000: uvm_test_top.ev.agt.drv [DRV] Write Transaction Received addr=c0 len=5
UVM_INFO /home/user2/Documents/user1/AXI_DV_coverage/tb/env/axi_slave_mem_model.sv(81) @ 645000: uvm_test_top.ev.mem_model [MEM_MODEL ] Write Burst start addr=c0 beats=6
UVM_INFO /home/user2/Documents/user1/AXI_DV_coverage/tb/agents/driver.sv(106) @ 645000: uvm_test_top.ev.agt.drv [DRV] AW sent addr=c0 len=5
UVM_INFO /home/user2/Documents/user1/AXI_DV_coverage/tb/env/axi_slave_mem_model.sv(90) @ 655000: uvm_test_top.ev.mem_model [MEM Model] Write Mem[c0]=e3abe3ae
UVM_INFO /home/user2/Documents/user1/AXI_DV_coverage/tb/env/axi_slave_mem_model.sv(90) @ 665000: uvm_test_top.ev.mem_model [MEM Model] Write Mem[c0]=1fb359b1
UVM_INFO /home/user2/Documents/user1/AXI_DV_coverage/tb/env/axi_slave_mem_model.sv(90) @ 675000: uvm_test_top.ev.mem_model [MEM Model] Write Mem[c0]=3c8ca6b7
UVM_INFO /home/user2/Documents/user1/AXI_DV_coverage/tb/env/axi_slave_mem_model.sv(90) @ 685000: uvm_test_top.ev.mem_model [MEM Model] Write Mem[c0]=aa3222ab
UVM_INFO /home/user2/Documents/user1/AXI_DV_coverage/tb/env/axi_slave_mem_model.sv(90) @ 695000: uvm_test_top.ev.mem_model [MEM Model] Write Mem[c0]=140cd31
UVM_INFO /home/user2/Documents/user1/AXI_DV_coverage/tb/env/axi_slave_mem_model.sv(90) @ 705000: uvm_test_top.ev.mem_model [MEM Model] Write Mem[c0]=2c968cd
UVM_INFO /home/user2/Documents/user1/AXI_DV_coverage/tb/agents/driver.sv(141) @ 705000: uvm_test_top.ev.agt.drv [DRV] W Burst sent beats=6
UVM_INFO /home/user2/Documents/user1/AXI_DV_coverage/tb/agents/driver.sv(159) @ 715000: uvm_test_top.ev.agt.drv [DRV] Write Response =0
UVM_INFO /home/user2/Documents/user1/AXI_DV_coverage/tb/env/scoreboard.sv(71) @ 725000: uvm_test_top.ev.scb [SB] WRITE MEM[c0]=e3abe3ae
UVM_INFO /home/user2/Documents/user1/AXI_DV_coverage/tb/env/scoreboard.sv(71) @ 725000: uvm_test_top.ev.scb [SB] WRITE MEM[c0]=1fb359b1
UVM_INFO /home/user2/Documents/user1/AXI_DV_coverage/tb/env/scoreboard.sv(71) @ 725000: uvm_test_top.ev.scb [SB] WRITE MEM[c0]=3c8ca6b7
UVM_INFO /home/user2/Documents/user1/AXI_DV_coverage/tb/env/scoreboard.sv(71) @ 725000: uvm_test_top.ev.scb [SB] WRITE MEM[c0]=aa3222ab
UVM_INFO /home/user2/Documents/user1/AXI_DV_coverage/tb/env/scoreboard.sv(71) @ 725000: uvm_test_top.ev.scb [SB] WRITE MEM[c0]=140cd31
UVM_INFO /home/user2/Documents/user1/AXI_DV_coverage/tb/env/scoreboard.sv(71) @ 725000: uvm_test_top.ev.scb [SB] WRITE MEM[c0]=2c968cd
UVM_INFO /home/user2/Documents/user1/AXI_DV_coverage/tb/agents/monitor.sv(86) @ 725000: uvm_test_top.ev.agt.mon [MON] Write MON addr=c0 len=5
UVM_INFO /home/user2/Documents/user1/AXI_DV_coverage/tb/sequences/sequence.sv(175) @ 725000: uvm_test_top.ev.agt.sqr@@sq [SEQ2] Fixed aligned Write :addr=c0 len=5 
UVM_INFO /home/user2/Documents/user1/AXI_DV_coverage/tb/agents/driver.sv(73) @ 725000: uvm_test_top.ev.agt.drv [DRV] Read Transaction Received addr=c0 len=5
UVM_INFO /home/user2/Documents/user1/AXI_DV_coverage/tb/env/axi_slave_mem_model.sv(132) @ 755000: uvm_test_top.ev.mem_model [MEM_MODEL ] Read Burst start addr=c0 beats=6
UVM_INFO /home/user2/Documents/user1/AXI_DV_coverage/tb/agents/driver.sv(192) @ 755000: uvm_test_top.ev.agt.drv [DRV] AR sent addr=c0 len=5
UVM_INFO /home/user2/Documents/user1/AXI_DV_coverage/tb/env/axi_slave_mem_model.sv(136) @ 760000: uvm_test_top.ev.mem_model [MEM Model] Read Mem[c0]=2c968cd
UVM_INFO /home/user2/Documents/user1/AXI_DV_coverage/tb/agents/driver.sv(227) @ 775000: uvm_test_top.ev.agt.drv [DRV] RDATA beat=1 data=2c968cd last=0
UVM_INFO /home/user2/Documents/user1/AXI_DV_coverage/tb/env/axi_slave_mem_model.sv(136) @ 780000: uvm_test_top.ev.mem_model [MEM Model] Read Mem[c0]=2c968cd
UVM_INFO /home/user2/Documents/user1/AXI_DV_coverage/tb/agents/driver.sv(227) @ 785000: uvm_test_top.ev.agt.drv [DRV] RDATA beat=2 data=2c968cd last=0
UVM_INFO /home/user2/Documents/user1/AXI_DV_coverage/tb/env/axi_slave_mem_model.sv(136) @ 790000: uvm_test_top.ev.mem_model [MEM Model] Read Mem[c0]=2c968cd
UVM_INFO /home/user2/Documents/user1/AXI_DV_coverage/tb/agents/driver.sv(227) @ 795000: uvm_test_top.ev.agt.drv [DRV] RDATA beat=3 data=2c968cd last=0
UVM_INFO /home/user2/Documents/user1/AXI_DV_coverage/tb/env/axi_slave_mem_model.sv(136) @ 800000: uvm_test_top.ev.mem_model [MEM Model] Read Mem[c0]=2c968cd
UVM_INFO /home/user2/Documents/user1/AXI_DV_coverage/tb/agents/driver.sv(227) @ 805000: uvm_test_top.ev.agt.drv [DRV] RDATA beat=4 data=2c968cd last=0
UVM_INFO /home/user2/Documents/user1/AXI_DV_coverage/tb/env/axi_slave_mem_model.sv(136) @ 810000: uvm_test_top.ev.mem_model [MEM Model] Read Mem[c0]=2c968cd
UVM_INFO /home/user2/Documents/user1/AXI_DV_coverage/tb/agents/driver.sv(227) @ 815000: uvm_test_top.ev.agt.drv [DRV] RDATA beat=5 data=2c968cd last=0
UVM_INFO /home/user2/Documents/user1/AXI_DV_coverage/tb/env/axi_slave_mem_model.sv(136) @ 820000: uvm_test_top.ev.mem_model [MEM Model] Read Mem[c0]=2c968cd
UVM_INFO /home/user2/Documents/user1/AXI_DV_coverage/tb/env/scoreboard.sv(83) @ 825000: uvm_test_top.ev.scb [SB] MATCH Beat=1 addr=c0 exp=2c968cd act=2c968cd
UVM_INFO /home/user2/Documents/user1/AXI_DV_coverage/tb/env/scoreboard.sv(83) @ 825000: uvm_test_top.ev.scb [SB] MATCH Beat=2 addr=c0 exp=2c968cd act=2c968cd
UVM_INFO /home/user2/Documents/user1/AXI_DV_coverage/tb/env/scoreboard.sv(83) @ 825000: uvm_test_top.ev.scb [SB] MATCH Beat=3 addr=c0 exp=2c968cd act=2c968cd
UVM_INFO /home/user2/Documents/user1/AXI_DV_coverage/tb/env/scoreboard.sv(83) @ 825000: uvm_test_top.ev.scb [SB] MATCH Beat=4 addr=c0 exp=2c968cd act=2c968cd
UVM_INFO /home/user2/Documents/user1/AXI_DV_coverage/tb/env/scoreboard.sv(83) @ 825000: uvm_test_top.ev.scb [SB] MATCH Beat=5 addr=c0 exp=2c968cd act=2c968cd
UVM_INFO /home/user2/Documents/user1/AXI_DV_coverage/tb/env/scoreboard.sv(83) @ 825000: uvm_test_top.ev.scb [SB] MATCH Beat=6 addr=c0 exp=2c968cd act=2c968cd
UVM_INFO /home/user2/Documents/user1/AXI_DV_coverage/tb/agents/monitor.sv(121) @ 825000: uvm_test_top.ev.agt.mon [MON] READ MON addr=c0 len=5
UVM_INFO /home/user2/Documents/user1/AXI_DV_coverage/tb/agents/driver.sv(227) @ 825000: uvm_test_top.ev.agt.drv [DRV] RDATA beat=6 data=2c968cd last=1
UVM_INFO /home/user2/Documents/user1/AXI_DV_coverage/tb/agents/driver.sv(244) @ 835000: uvm_test_top.ev.agt.drv [DRV] Read Burst received  beats=6
UVM_INFO /home/user2/Documents/user1/AXI_DV_coverage/tb/sequences/sequence.sv(186) @ 835000: uvm_test_top.ev.agt.sqr@@sq [SEQ] Fixed aligned Read :addr=c0 len=5 
UVM_INFO /home/user2/Documents/user1/AXI_DV_coverage/tb/agents/driver.sv(64) @ 835000: uvm_test_top.ev.agt.drv [DRV] Write Transaction Received addr=f0 len=3
UVM_INFO /home/user2/Documents/user1/AXI_DV_coverage/tb/env/axi_slave_mem_model.sv(81) @ 865000: uvm_test_top.ev.mem_model [MEM_MODEL ] Write Burst start addr=f0 beats=4
UVM_INFO /home/user2/Documents/user1/AXI_DV_coverage/tb/agents/driver.sv(106) @ 865000: uvm_test_top.ev.agt.drv [DRV] AW sent addr=f0 len=3
UVM_INFO /home/user2/Documents/user1/AXI_DV_coverage/tb/env/axi_slave_mem_model.sv(90) @ 875000: uvm_test_top.ev.mem_model [MEM Model] Write Mem[f0]=a63cd28
UVM_INFO /home/user2/Documents/user1/AXI_DV_coverage/tb/env/axi_slave_mem_model.sv(90) @ 885000: uvm_test_top.ev.mem_model [MEM Model] Write Mem[f0]=4ba99a90
UVM_INFO /home/user2/Documents/user1/AXI_DV_coverage/tb/env/axi_slave_mem_model.sv(90) @ 895000: uvm_test_top.ev.mem_model [MEM Model] Write Mem[f0]=8617cfe9
UVM_INFO /home/user2/Documents/user1/AXI_DV_coverage/tb/env/axi_slave_mem_model.sv(90) @ 905000: uvm_test_top.ev.mem_model [MEM Model] Write Mem[f0]=f5fc79ea
UVM_INFO /home/user2/Documents/user1/AXI_DV_coverage/tb/agents/driver.sv(141) @ 905000: uvm_test_top.ev.agt.drv [DRV] W Burst sent beats=4
UVM_INFO /home/user2/Documents/user1/AXI_DV_coverage/tb/agents/driver.sv(159) @ 915000: uvm_test_top.ev.agt.drv [DRV] Write Response =0
UVM_INFO /home/user2/Documents/user1/AXI_DV_coverage/tb/env/scoreboard.sv(71) @ 925000: uvm_test_top.ev.scb [SB] WRITE MEM[f0]=a63cd28
UVM_INFO /home/user2/Documents/user1/AXI_DV_coverage/tb/env/scoreboard.sv(71) @ 925000: uvm_test_top.ev.scb [SB] WRITE MEM[f0]=4ba99a90
UVM_INFO /home/user2/Documents/user1/AXI_DV_coverage/tb/env/scoreboard.sv(71) @ 925000: uvm_test_top.ev.scb [SB] WRITE MEM[f0]=8617cfe9
UVM_INFO /home/user2/Documents/user1/AXI_DV_coverage/tb/env/scoreboard.sv(71) @ 925000: uvm_test_top.ev.scb [SB] WRITE MEM[f0]=f5fc79ea
UVM_INFO /home/user2/Documents/user1/AXI_DV_coverage/tb/agents/monitor.sv(86) @ 925000: uvm_test_top.ev.agt.mon [MON] Write MON addr=f0 len=3
UVM_INFO /home/user2/Documents/user1/AXI_DV_coverage/tb/sequences/sequence.sv(175) @ 925000: uvm_test_top.ev.agt.sqr@@sq [SEQ2] Fixed aligned Write :addr=f0 len=3 
UVM_INFO /home/user2/Documents/user1/AXI_DV_coverage/tb/agents/driver.sv(73) @ 925000: uvm_test_top.ev.agt.drv [DRV] Read Transaction Received addr=f0 len=3
UVM_INFO /home/user2/Documents/user1/AXI_DV_coverage/tb/env/axi_slave_mem_model.sv(132) @ 955000: uvm_test_top.ev.mem_model [MEM_MODEL ] Read Burst start addr=f0 beats=4
UVM_INFO /home/user2/Documents/user1/AXI_DV_coverage/tb/agents/driver.sv(192) @ 955000: uvm_test_top.ev.agt.drv [DRV] AR sent addr=f0 len=3
UVM_INFO /home/user2/Documents/user1/AXI_DV_coverage/tb/env/axi_slave_mem_model.sv(136) @ 960000: uvm_test_top.ev.mem_model [MEM Model] Read Mem[f0]=f5fc79ea
UVM_INFO /home/user2/Documents/user1/AXI_DV_coverage/tb/agents/driver.sv(227) @ 975000: uvm_test_top.ev.agt.drv [DRV] RDATA beat=1 data=f5fc79ea last=0
UVM_INFO /home/user2/Documents/user1/AXI_DV_coverage/tb/env/axi_slave_mem_model.sv(136) @ 980000: uvm_test_top.ev.mem_model [MEM Model] Read Mem[f0]=f5fc79ea
UVM_INFO /home/user2/Documents/user1/AXI_DV_coverage/tb/agents/driver.sv(227) @ 985000: uvm_test_top.ev.agt.drv [DRV] RDATA beat=2 data=f5fc79ea last=0
UVM_INFO /home/user2/Documents/user1/AXI_DV_coverage/tb/env/axi_slave_mem_model.sv(136) @ 990000: uvm_test_top.ev.mem_model [MEM Model] Read Mem[f0]=f5fc79ea
UVM_INFO /home/user2/Documents/user1/AXI_DV_coverage/tb/agents/driver.sv(227) @ 995000: uvm_test_top.ev.agt.drv [DRV] RDATA beat=3 data=f5fc79ea last=0
UVM_INFO /home/user2/Documents/user1/AXI_DV_coverage/tb/env/axi_slave_mem_model.sv(136) @ 1000000: uvm_test_top.ev.mem_model [MEM Model] Read Mem[f0]=f5fc79ea
UVM_INFO /home/user2/Documents/user1/AXI_DV_coverage/tb/env/scoreboard.sv(83) @ 1005000: uvm_test_top.ev.scb [SB] MATCH Beat=1 addr=f0 exp=f5fc79ea act=f5fc79ea
UVM_INFO /home/user2/Documents/user1/AXI_DV_coverage/tb/env/scoreboard.sv(83) @ 1005000: uvm_test_top.ev.scb [SB] MATCH Beat=2 addr=f0 exp=f5fc79ea act=f5fc79ea
UVM_INFO /home/user2/Documents/user1/AXI_DV_coverage/tb/env/scoreboard.sv(83) @ 1005000: uvm_test_top.ev.scb [SB] MATCH Beat=3 addr=f0 exp=f5fc79ea act=f5fc79ea
UVM_INFO /home/user2/Documents/user1/AXI_DV_coverage/tb/env/scoreboard.sv(83) @ 1005000: uvm_test_top.ev.scb [SB] MATCH Beat=4 addr=f0 exp=f5fc79ea act=f5fc79ea
UVM_INFO /home/user2/Documents/user1/AXI_DV_coverage/tb/agents/monitor.sv(121) @ 1005000: uvm_test_top.ev.agt.mon [MON] READ MON addr=f0 len=3
UVM_INFO /home/user2/Documents/user1/AXI_DV_coverage/tb/agents/driver.sv(227) @ 1005000: uvm_test_top.ev.agt.drv [DRV] RDATA beat=4 data=f5fc79ea last=1
UVM_INFO /home/user2/Documents/user1/AXI_DV_coverage/tb/agents/driver.sv(244) @ 1015000: uvm_test_top.ev.agt.drv [DRV] Read Burst received  beats=4
UVM_INFO /home/user2/Documents/user1/AXI_DV_coverage/tb/sequences/sequence.sv(186) @ 1015000: uvm_test_top.ev.agt.sqr@@sq [SEQ] Fixed aligned Read :addr=f0 len=3 
UVM_INFO /man-vol1/tools/install/XCELIUM2503/tools/methodology/UVM/CDNS-1.1d/sv/src/base/uvm_objection.svh(1268) @ 3015000: reporter [TEST_DONE] 'run' phase is ready to proceed to the 'extract' phase

--- UVM Report catcher Summary ---


Number of demoted UVM_FATAL reports  :    0
Number of demoted UVM_ERROR reports  :    0
Number of demoted UVM_WARNING reports:    0
Number of caught UVM_FATAL reports   :    0
Number of caught UVM_ERROR reports   :    0
Number of caught UVM_WARNING reports :    0

--- UVM Report Summary ---

** Report counts by severity
UVM_INFO :  192
UVM_WARNING :    0
UVM_ERROR :    0
UVM_FATAL :    0
** Report counts by id
[DRV]    60
[MEM Model]    50
[MEM_MODEL ]    10
[MON]    10
[RNTST]     1
[SB]    50
[SEQ]     5
[SEQ2]     5
[TEST_DONE]     1
Simulation complete via $finish(1) at time 3015 NS + 45
/man-vol1/tools/install/XCELIUM2503/tools/methodology/UVM/CDNS-1.1d/sv/src/base/uvm_root.svh:457     $finish;
xcelium>  
xcelium> exit
TOOL:	xrun(64)	25.03-s001: Exiting on Jul 18, 2026 at 03:41:43 EDT  (total: 00:00:01)
